T10BC 000:004.156   SEGGER J-Link V8.44a Log File
T10BC 000:004.330   DLL Compiled: Jun 18 2025 16:28:32
T10BC 000:004.336   Logging started @ 2025-06-25 13:13
T10BC 000:004.341   Process: C:\Keil_v5\UV4\UV4.exe
T10BC 000:004.356 - 4.346ms 
T10BC 000:004.376 JLINK_SetWarnOutHandler(...)
T10BC 000:004.380 - 0.006ms 
T10BC 000:004.389 JLINK_OpenEx(...)
T10BC 000:007.947   Firmware: J-Link STLink V21 compiled Aug 12 2019 10:29:20
T10BC 000:008.868   Firmware: J-Link STLink V21 compiled Aug 12 2019 10:29:20
T10BC 000:023.579   Hardware: V1.00
T10BC 000:023.601   S/N: 772206475
T10BC 000:023.608   OEM: SEGGER
T10BC 000:023.627   Feature(s): None
T10BC 000:024.728   Bootloader: (FW returned invalid version)
T10BC 000:026.179   TELNET listener socket opened on port 19021
T10BC 000:026.308   WEBSRV WEBSRV_Init(): Starting webserver thread(s)
T10BC 000:026.458   WEBSRV Webserver running on local port 19080
T10BC 000:026.570   Looking for J-Link GUI Server exe at: C:\Keil_v5\ARM\Segger\JLinkGUIServer.exe
T10BC 000:026.658   Looking for J-Link GUI Server exe at: C:\Program Files\SEGGER\JLink_V844a\JLinkGUIServer.exe
T10BC 000:026.692   Forking J-Link GUI Server: C:\Program Files\SEGGER\JLink_V844a\JLinkGUIServer.exe
T10BC 000:069.540   J-Link GUI Server info: "J-Link GUI server V8.44a "
T10BC 000:070.206 - 65.799ms returns "O.K."
T10BC 000:070.257 JLINK_GetEmuCaps()
T10BC 000:070.288 - 0.013ms returns 0x98EA5A33
T10BC 000:070.310 JLINK_TIF_GetAvailable(...)
T10BC 000:070.692 - 0.381ms 
T10BC 000:070.709 JLINK_SetErrorOutHandler(...)
T10BC 000:070.713 - 0.005ms 
T10BC 000:070.750 JLINK_ExecCommand("ProjectFile = "C:\Users\administractor Cheng\Desktop\四轴\挑战点\移植验证-点灯\JLinkSettings.ini"", ...). 
T10BC 000:085.858   Ref file found at: C:\Keil_v5\ARM\Segger\JLinkDevices.ref
T10BC 000:086.038   REF file references invalid XML file: C:\Program Files\SEGGER\JLink_V844a\JLinkDevices.xml
T10BC 000:087.086 - 16.337ms returns 0x00
T10BC 000:090.547 JLINK_ExecCommand("Device = STM32F401RETx", ...). 
T10BC 000:094.907   Device "STM32F401RE" selected.
T10BC 000:095.304 - 4.732ms returns 0x00
T10BC 000:095.320 JLINK_ExecCommand("DisableConnectionTimeout", ...). 
T10BC 000:095.341   ERROR: Unknown command
T10BC 000:095.348 - 0.021ms returns 0x01
T10BC 000:095.355 JLINK_GetHardwareVersion()
T10BC 000:095.363 - 0.005ms returns 10000
T10BC 000:095.368 JLINK_GetDLLVersion()
T10BC 000:095.373 - 0.005ms returns 84401
T10BC 000:095.379 JLINK_GetOEMString(...)
T10BC 000:095.385 JLINK_GetFirmwareString(...)
T10BC 000:095.390 - 0.005ms 
T10BC 000:103.732 JLINK_GetDLLVersion()
T10BC 000:103.765 - 0.033ms returns 84401
T10BC 000:103.772 JLINK_GetCompileDateTime()
T10BC 000:103.776 - 0.004ms 
T10BC 000:105.845 JLINK_GetFirmwareString(...)
T10BC 000:105.864 - 0.020ms 
T10BC 000:107.890 JLINK_GetHardwareVersion()
T10BC 000:107.904 - 0.014ms returns 10000
T10BC 000:109.950 JLINK_GetSN()
T10BC 000:109.971 - 0.020ms returns 772206475
T10BC 000:112.719 JLINK_GetOEMString(...)
T10BC 000:115.363 JLINK_TIF_Select(JLINKARM_TIF_SWD)
T10BC 000:116.325 - 0.961ms returns 0x00
T10BC 000:116.346 JLINK_HasError()
T10BC 000:116.365 JLINK_SetSpeed(5000)
T10BC 000:116.645 - 0.280ms 
T10BC 000:116.662 JLINK_GetId()
T10BC 000:119.677   InitTarget() start
T10BC 000:119.710    J-Link Script File: Executing InitTarget()
T10BC 000:122.459   SWD selected. Executing JTAG -> SWD switching sequence.
T10BC 000:127.276   DAP initialized successfully.
T10BC 000:137.183   InitTarget() end - Took 14.8ms
T10BC 000:140.697   Found SW-DP with ID 0x4BA01477
T10BC 000:142.790   Old FW that does not support reading DPIDR via DAP jobs
T10BC 000:146.581   DPv0 detected
T10BC 000:149.160   CoreSight SoC-400 or earlier
T10BC 000:151.816   Scanning AP map to find all available APs
T10BC 000:155.021   AP[1]: Stopped AP scan as end of AP map has been reached
T10BC 000:157.432   AP[0]: AHB-AP (IDR: 0x24770011, ADDR: 0x00000000)
T10BC 000:159.883   Iterating through AP map to find AHB-AP to use
T10BC 000:163.992   AP[0]: Core found
T10BC 000:166.290   AP[0]: AHB-AP ROM base: 0xE00FF000
T10BC 000:169.677   CPUID register: 0x410FC241. Implementer code: 0x41 (ARM)
T10BC 000:171.947   Found Cortex-M4 r0p1, Little endian.
T10BC 000:172.410   -- Max. mem block: 0x00002D18
T10BC 000:173.028   CPU_ReadMem(4 bytes @ 0xE000EDF0)
T10BC 000:173.441   CPU_ReadMem(4 bytes @ 0xE0002000)
T10BC 000:176.300   FPUnit: 6 code (BP) slots and 2 literal slots
T10BC 000:176.337   CPU_ReadMem(4 bytes @ 0xE000EDFC)
T10BC 000:176.786   CPU_WriteMem(4 bytes @ 0xE000EDFC)
T10BC 000:177.306   CPU_ReadMem(4 bytes @ 0xE0001000)
T10BC 000:177.722   CPU_WriteMem(4 bytes @ 0xE0001000)
T10BC 000:178.152   CPU_ReadMem(4 bytes @ 0xE000ED88)
T10BC 000:178.521   CPU_WriteMem(4 bytes @ 0xE000ED88)
T10BC 000:178.878   CPU_ReadMem(4 bytes @ 0xE000ED88)
T10BC 000:179.276   CPU_WriteMem(4 bytes @ 0xE000ED88)
T10BC 000:182.092   CoreSight components:
T10BC 000:184.392   ROMTbl[0] @ E00FF000
T10BC 000:184.422   CPU_ReadMem(64 bytes @ 0xE00FF000)
T10BC 000:185.240   CPU_ReadMem(32 bytes @ 0xE000EFE0)
T10BC 000:188.059   [0][0]: E000E000 CID B105E00D PID 000BB00C SCS-M7
T10BC 000:188.079   CPU_ReadMem(32 bytes @ 0xE0001FE0)
T10BC 000:190.907   [0][1]: E0001000 CID B105E00D PID 003BB002 DWT
T10BC 000:190.924   CPU_ReadMem(32 bytes @ 0xE0002FE0)
T10BC 000:194.725   [0][2]: E0002000 CID B105E00D PID 002BB003 FPB
T10BC 000:194.768   CPU_ReadMem(32 bytes @ 0xE0000FE0)
T10BC 000:197.690   [0][3]: E0000000 CID B105E00D PID 003BB001 ITM
T10BC 000:197.711   CPU_ReadMem(32 bytes @ 0xE0040FE0)
T10BC 000:200.454   [0][4]: E0040000 CID B105900D PID 000BB9A1 TPIU
T10BC 000:200.476   CPU_ReadMem(32 bytes @ 0xE0041FE0)
T10BC 000:203.373   [0][5]: E0041000 CID B105900D PID 000BB925 ETM
T10BC 000:203.816 - 87.151ms returns 0x2BA01477
T10BC 000:203.838 JLINK_GetDLLVersion()
T10BC 000:203.843 - 0.005ms returns 84401
T10BC 000:203.849 JLINK_CORE_GetFound()
T10BC 000:203.854 - 0.005ms returns 0xE0000FF
T10BC 000:203.896 JLINK_GetDebugInfo(0x100 = JLINKARM_ROM_TABLE_ADDR_INDEX)
T10BC 000:203.902   Value=0xE00FF000
T10BC 000:203.909 - 0.013ms returns 0
T10BC 000:206.003 JLINK_GetDebugInfo(0x100 = JLINKARM_ROM_TABLE_ADDR_INDEX)
T10BC 000:206.015   Value=0xE00FF000
T10BC 000:206.022 - 0.020ms returns 0
T10BC 000:206.028 JLINK_GetDebugInfo(0x101 = JLINKARM_DEBUG_INFO_ETM_ADDR_INDEX)
T10BC 000:206.033   Value=0xE0041000
T10BC 000:206.040 - 0.011ms returns 0
T10BC 000:206.046 JLINK_ReadMemEx(0xE0041FD0, 0x20 Bytes, Flags = 0x02000004)
T10BC 000:206.080   CPU_ReadMem(32 bytes @ 0xE0041FD0)
T10BC 000:206.679   Data:  04 00 00 00 00 00 00 00 00 00 00 00 00 00 00 00 ...
T10BC 000:206.688 - 0.642ms returns 32 (0x20)
T10BC 000:206.695 JLINK_GetDebugInfo(0x102 = JLINKARM_DEBUG_INFO_MTB_ADDR_INDEX)
T10BC 000:206.700   Value=0x00000000
T10BC 000:206.706 - 0.011ms returns 0
T10BC 000:206.712 JLINK_GetDebugInfo(0x103 = JLINKARM_DEBUG_INFO_TPIU_ADDR_INDEX)
T10BC 000:206.717   Value=0xE0040000
T10BC 000:206.724 - 0.011ms returns 0
T10BC 000:206.729 JLINK_GetDebugInfo(0x104 = JLINKARM_DEBUG_INFO_ITM_ADDR_INDEX)
T10BC 000:206.734   Value=0xE0000000
T10BC 000:206.741 - 0.011ms returns 0
T10BC 000:206.746 JLINK_GetDebugInfo(0x105 = JLINKARM_DEBUG_INFO_DWT_ADDR_INDEX)
T10BC 000:206.751   Value=0xE0001000
T10BC 000:206.758 - 0.011ms returns 0
T10BC 000:206.763 JLINK_GetDebugInfo(0x106 = JLINKARM_DEBUG_INFO_FPB_ADDR_INDEX)
T10BC 000:206.768   Value=0xE0002000
T10BC 000:206.775 - 0.011ms returns 0
T10BC 000:206.780 JLINK_GetDebugInfo(0x107 = JLINKARM_DEBUG_INFO_NVIC_ADDR_INDEX)
T10BC 000:206.785   Value=0xE000E000
T10BC 000:206.792 - 0.011ms returns 0
T10BC 000:206.797 JLINK_GetDebugInfo(0x10C = JLINKARM_DEBUG_INFO_DBG_ADDR_INDEX)
T10BC 000:206.802   Value=0xE000EDF0
T10BC 000:206.809 - 0.011ms returns 0
T10BC 000:206.814 JLINK_ReadMemU32(0xE000EF40, 0x1 Items)
T10BC 000:206.821   CPU_ReadMem(4 bytes @ 0xE000EF40)
T10BC 000:207.174   Data:  21 00 11 10
T10BC 000:207.182 - 0.368ms returns 1 (0x1)
T10BC 000:207.188 JLINK_ReadMemU32(0xE000EF44, 0x1 Items)
T10BC 000:207.194   CPU_ReadMem(4 bytes @ 0xE000EF44)
T10BC 000:207.580   Data:  11 00 00 11
T10BC 000:207.588 - 0.399ms returns 1 (0x1)
T10BC 000:207.594 JLINK_ReadMemU32(0xE000ED00, 0x1 Items)
T10BC 000:207.600   CPU_ReadMem(4 bytes @ 0xE000ED00)
T10BC 000:207.948   Data:  41 C2 0F 41
T10BC 000:207.956   Debug reg: CPUID
T10BC 000:207.963 - 0.369ms returns 1 (0x1)
T10BC 000:207.969 JLINK_GetDebugInfo(0x10F = JLINKARM_DEBUG_INFO_HAS_CORTEX_M_SECURITY_EXT_INDEX)
T10BC 000:207.974   Value=0x00000000
T10BC 000:207.981 - 0.011ms returns 0
T10BC 000:207.987 JLINK_HasError()
T10BC 000:207.993 JLINK_SetResetType(JLINKARM_CM3_RESET_TYPE_NORMAL)
T10BC 000:207.999 - 0.005ms returns JLINKARM_CM3_RESET_TYPE_NORMAL
T10BC 000:208.004 JLINK_Reset()
T10BC 000:208.013   JLINK_GetResetTypeDesc
T10BC 000:208.018   - 0.005ms 
T10BC 000:211.224   Reset type: NORMAL (https://wiki.segger.com/J-Link_Reset_Strategies)
T10BC 000:211.270   CPU is running
T10BC 000:211.284   CPU_WriteMem(4 bytes @ 0xE000EDF0)
T10BC 000:211.740   CPU is running
T10BC 000:211.756   CPU_WriteMem(4 bytes @ 0xE000EDFC)
T10BC 000:214.521   Reset: Halt core after reset via DEMCR.VC_CORERESET.
T10BC 000:217.656   Reset: Reset device via AIRCR.SYSRESETREQ.
T10BC 000:217.689   CPU is running
T10BC 000:217.702   CPU_WriteMem(4 bytes @ 0xE000ED0C)
T10BC 000:271.124   CPU_ReadMem(4 bytes @ 0xE000EDF0)
T10BC 000:271.563   CPU_ReadMem(4 bytes @ 0xE000EDF0)
T10BC 000:274.894   CPU_WriteMem(4 bytes @ 0xE000EDFC)
T10BC 000:281.136   CPU_ReadMem(4 bytes @ 0xE000EDF0)
T10BC 000:284.203   CPU_WriteMem(4 bytes @ 0xE0002000)
T10BC 000:284.634   CPU_ReadMem(4 bytes @ 0xE000EDFC)
T10BC 000:284.937   CPU_ReadMem(4 bytes @ 0xE0001000)
T10BC 000:285.273 - 77.268ms 
T10BC 000:285.329 JLINK_Halt()
T10BC 000:285.335 - 0.006ms returns 0x00
T10BC 000:285.342 JLINK_ReadMemU32(0xE000EDF0, 0x1 Items)
T10BC 000:285.353   CPU_ReadMem(4 bytes @ 0xE000EDF0)
T10BC 000:285.690   Data:  03 00 03 00
T10BC 000:285.698   Debug reg: DHCSR
T10BC 000:285.705 - 0.362ms returns 1 (0x1)
T10BC 000:285.711 JLINK_WriteU32(0xE000EDF0, 0xA05F0003)
T10BC 000:285.715   Debug reg: DHCSR
T10BC 000:285.945   CPU_WriteMem(4 bytes @ 0xE000EDF0)
T10BC 000:286.369 - 0.657ms returns 0 (0x00000000)
T10BC 000:286.380 JLINK_WriteU32(0xE000EDFC, 0x01000000)
T10BC 000:286.385   Debug reg: DEMCR
T10BC 000:286.396   CPU_WriteMem(4 bytes @ 0xE000EDFC)
T10BC 000:286.780 - 0.398ms returns 0 (0x00000000)
T10BC 000:297.743 JLINK_GetHWStatus(...)
T10BC 000:298.117 - 0.373ms returns 0
T10BC 000:306.051 JLINK_GetNumBPUnits(Type = 0xFFFFFF00)
T10BC 000:306.078 - 0.027ms returns 0x06
T10BC 000:306.084 JLINK_GetNumBPUnits(Type = 0xF0)
T10BC 000:306.089 - 0.005ms returns 0x2000
T10BC 000:306.095 JLINK_GetNumWPUnits()
T10BC 000:306.099 - 0.004ms returns 4
T10BC 000:312.817 JLINK_GetSpeed()
T10BC 000:312.849 - 0.031ms returns 4000
T10BC 000:316.911 JLINK_ReadMemU32(0xE000E004, 0x1 Items)
T10BC 000:316.942   CPU_ReadMem(4 bytes @ 0xE000E004)
T10BC 000:317.365   Data:  02 00 00 00
T10BC 000:317.376 - 0.465ms returns 1 (0x1)
T10BC 000:317.383 JLINK_ReadMemU32(0xE000E004, 0x1 Items)
T10BC 000:317.390   CPU_ReadMem(4 bytes @ 0xE000E004)
T10BC 000:317.742   Data:  02 00 00 00
T10BC 000:317.750 - 0.367ms returns 1 (0x1)
T10BC 000:317.756 JLINK_WriteMemEx(0xE0001000, 0x0000001C Bytes, Flags = 0x02000004)
T10BC 000:317.761   Data:  01 00 00 00 00 00 00 00 00 00 00 00 00 00 00 00 ...
T10BC 000:317.773   CPU_WriteMem(28 bytes @ 0xE0001000)
T10BC 000:318.297 - 0.540ms returns 0x1C
T10BC 000:318.308 JLINK_Halt()
T10BC 000:318.313 - 0.005ms returns 0x00
T10BC 000:318.318 JLINK_IsHalted()
T10BC 000:318.324 - 0.005ms returns TRUE
T10BC 000:321.357 JLINK_WriteMem(0x20000000, 0x184 Bytes, ...)
T10BC 000:321.373   Data:  00 BE 0A E0 0D 78 2D 06 68 40 08 24 40 00 00 D3 ...
T10BC 000:321.605   CPU_WriteMem(388 bytes @ 0x20000000)
T10BC 000:324.261 - 2.904ms returns 0x184
T10BC 000:324.310 JLINK_HasError()
T10BC 000:324.317 JLINK_WriteReg(R0, 0x08000000)
T10BC 000:324.325 - 0.007ms returns 0
T10BC 000:324.330 JLINK_WriteReg(R1, 0x00B71B00)
T10BC 000:324.340 - 0.009ms returns 0
T10BC 000:324.347 JLINK_WriteReg(R2, 0x00000001)
T10BC 000:324.352 - 0.005ms returns 0
T10BC 000:324.357 JLINK_WriteReg(R3, 0x00000000)
T10BC 000:324.362 - 0.004ms returns 0
T10BC 000:324.368 JLINK_WriteReg(R4, 0x00000000)
T10BC 000:324.374 - 0.005ms returns 0
T10BC 000:324.379 JLINK_WriteReg(R5, 0x00000000)
T10BC 000:324.384 - 0.004ms returns 0
T10BC 000:324.390 JLINK_WriteReg(R6, 0x00000000)
T10BC 000:324.395 - 0.004ms returns 0
T10BC 000:324.400 JLINK_WriteReg(R7, 0x00000000)
T10BC 000:324.406 - 0.005ms returns 0
T10BC 000:324.425 JLINK_WriteReg(R8, 0x00000000)
T10BC 000:324.430 - 0.019ms returns 0
T10BC 000:324.435 JLINK_WriteReg(R9, 0x20000180)
T10BC 000:324.440 - 0.004ms returns 0
T10BC 000:324.446 JLINK_WriteReg(R10, 0x00000000)
T10BC 000:324.451 - 0.004ms returns 0
T10BC 000:324.456 JLINK_WriteReg(R11, 0x00000000)
T10BC 000:324.461 - 0.004ms returns 0
T10BC 000:324.467 JLINK_WriteReg(R12, 0x00000000)
T10BC 000:324.471 - 0.004ms returns 0
T10BC 000:324.477 JLINK_WriteReg(R13 (SP), 0x20001000)
T10BC 000:324.483 - 0.005ms returns 0
T10BC 000:324.488 JLINK_WriteReg(R14, 0x20000001)
T10BC 000:324.493 - 0.004ms returns 0
T10BC 000:324.503 JLINK_WriteReg(R15 (PC), 0x20000054)
T10BC 000:324.508 - 0.010ms returns 0
T10BC 000:324.514 JLINK_WriteReg(XPSR, 0x01000000)
T10BC 000:324.519 - 0.004ms returns 0
T10BC 000:324.524 JLINK_WriteReg(MSP, 0x20001000)
T10BC 000:324.529 - 0.004ms returns 0
T10BC 000:324.535 JLINK_WriteReg(PSP, 0x20001000)
T10BC 000:324.540 - 0.004ms returns 0
T10BC 000:324.545 JLINK_WriteReg(CFBP, 0x00000000)
T10BC 000:324.550 - 0.005ms returns 0
T10BC 000:324.556 JLINK_SetBPEx(Addr = 0x20000000, Type = 0xFFFFFFF2)
T10BC 000:324.565   CPU_ReadMem(2 bytes @ 0x20000000)
T10BC 000:325.038 - 0.481ms returns 0x00000001
T10BC 000:325.052 JLINK_Go()
T10BC 000:325.069   CPU_WriteMem(2 bytes @ 0x20000000)
T10BC 000:325.490   CPU_ReadMem(4 bytes @ 0xE0001000)
T10BC 000:325.886   CPU_WriteMem(4 bytes @ 0xE0002008)
T10BC 000:325.901   CPU_WriteMem(4 bytes @ 0xE000200C)
T10BC 000:325.908   CPU_WriteMem(4 bytes @ 0xE0002010)
T10BC 000:325.915   CPU_WriteMem(4 bytes @ 0xE0002014)
T10BC 000:325.922   CPU_WriteMem(4 bytes @ 0xE0002018)
T10BC 000:325.930   CPU_WriteMem(4 bytes @ 0xE000201C)
T10BC 000:327.395   CPU_WriteMem(4 bytes @ 0xE0001004)
T10BC 000:333.376   Memory map 'after startup completion point' is active
T10BC 000:333.398 - 8.346ms 
T10BC 000:333.408 JLINK_IsHalted()
T10BC 000:336.316   CPU_ReadMem(2 bytes @ 0x20000000)
T10BC 000:336.765 - 3.356ms returns TRUE
T10BC 000:336.783 JLINK_ReadReg(R15 (PC))
T10BC 000:336.792 - 0.009ms returns 0x20000000
T10BC 000:336.800 JLINK_ClrBPEx(BPHandle = 0x00000001)
T10BC 000:336.806 - 0.005ms returns 0x00
T10BC 000:336.814 JLINK_ReadReg(R0)
T10BC 000:336.819 - 0.005ms returns 0x00000000
T10BC 000:337.158 JLINK_HasError()
T10BC 000:337.172 JLINK_WriteReg(R0, 0x08000000)
T10BC 000:337.179 - 0.006ms returns 0
T10BC 000:337.185 JLINK_WriteReg(R1, 0x00004000)
T10BC 000:337.190 - 0.005ms returns 0
T10BC 000:337.195 JLINK_WriteReg(R2, 0x000000FF)
T10BC 000:337.200 - 0.004ms returns 0
T10BC 000:337.206 JLINK_WriteReg(R3, 0x00000000)
T10BC 000:337.210 - 0.005ms returns 0
T10BC 000:337.216 JLINK_WriteReg(R4, 0x00000000)
T10BC 000:337.221 - 0.004ms returns 0
T10BC 000:337.226 JLINK_WriteReg(R5, 0x00000000)
T10BC 000:337.231 - 0.005ms returns 0
T10BC 000:337.237 JLINK_WriteReg(R6, 0x00000000)
T10BC 000:337.242 - 0.005ms returns 0
T10BC 000:337.248 JLINK_WriteReg(R7, 0x00000000)
T10BC 000:337.253 - 0.004ms returns 0
T10BC 000:337.258 JLINK_WriteReg(R8, 0x00000000)
T10BC 000:337.263 - 0.004ms returns 0
T10BC 000:337.268 JLINK_WriteReg(R9, 0x20000180)
T10BC 000:337.273 - 0.004ms returns 0
T10BC 000:337.279 JLINK_WriteReg(R10, 0x00000000)
T10BC 000:337.284 - 0.005ms returns 0
T10BC 000:337.289 JLINK_WriteReg(R11, 0x00000000)
T10BC 000:337.294 - 0.004ms returns 0
T10BC 000:337.299 JLINK_WriteReg(R12, 0x00000000)
T10BC 000:337.304 - 0.004ms returns 0
T10BC 000:337.369 JLINK_WriteReg(R13 (SP), 0x20001000)
T10BC 000:337.378 - 0.009ms returns 0
T10BC 000:337.384 JLINK_WriteReg(R14, 0x20000001)
T10BC 000:337.389 - 0.005ms returns 0
T10BC 000:337.394 JLINK_WriteReg(R15 (PC), 0x20000020)
T10BC 000:337.399 - 0.005ms returns 0
T10BC 000:337.405 JLINK_WriteReg(XPSR, 0x01000000)
T10BC 000:337.410 - 0.005ms returns 0
T10BC 000:337.415 JLINK_WriteReg(MSP, 0x20001000)
T10BC 000:337.420 - 0.004ms returns 0
T10BC 000:337.425 JLINK_WriteReg(PSP, 0x20001000)
T10BC 000:337.431 - 0.005ms returns 0
T10BC 000:337.436 JLINK_WriteReg(CFBP, 0x00000000)
T10BC 000:337.441 - 0.005ms returns 0
T10BC 000:337.447 JLINK_SetBPEx(Addr = 0x20000000, Type = 0xFFFFFFF2)
T10BC 000:337.453 - 0.006ms returns 0x00000002
T10BC 000:337.459 JLINK_Go()
T10BC 000:337.472   CPU_ReadMem(4 bytes @ 0xE0001000)
T10BC 000:340.622 - 3.162ms 
T10BC 000:340.640 JLINK_IsHalted()
T10BC 000:343.503   CPU_ReadMem(2 bytes @ 0x20000000)
T10BC 000:343.962 - 3.321ms returns TRUE
T10BC 000:343.972 JLINK_ReadReg(R15 (PC))
T10BC 000:343.980 - 0.008ms returns 0x20000000
T10BC 000:343.986 JLINK_ClrBPEx(BPHandle = 0x00000002)
T10BC 000:343.992 - 0.005ms returns 0x00
T10BC 000:343.997 JLINK_ReadReg(R0)
T10BC 000:344.003 - 0.005ms returns 0x00000001
T10BC 000:344.009 JLINK_HasError()
T10BC 000:344.015 JLINK_WriteReg(R0, 0x08000000)
T10BC 000:344.021 - 0.005ms returns 0
T10BC 000:344.026 JLINK_WriteReg(R1, 0x00004000)
T10BC 000:344.031 - 0.004ms returns 0
T10BC 000:344.037 JLINK_WriteReg(R2, 0x000000FF)
T10BC 000:344.041 - 0.004ms returns 0
T10BC 000:344.047 JLINK_WriteReg(R3, 0x00000000)
T10BC 000:344.053 - 0.005ms returns 0
T10BC 000:344.059 JLINK_WriteReg(R4, 0x00000000)
T10BC 000:344.064 - 0.005ms returns 0
T10BC 000:344.069 JLINK_WriteReg(R5, 0x00000000)
T10BC 000:344.074 - 0.004ms returns 0
T10BC 000:344.079 JLINK_WriteReg(R6, 0x00000000)
T10BC 000:344.084 - 0.004ms returns 0
T10BC 000:344.089 JLINK_WriteReg(R7, 0x00000000)
T10BC 000:344.094 - 0.004ms returns 0
T10BC 000:344.100 JLINK_WriteReg(R8, 0x00000000)
T10BC 000:344.105 - 0.005ms returns 0
T10BC 000:344.110 JLINK_WriteReg(R9, 0x20000180)
T10BC 000:344.115 - 0.004ms returns 0
T10BC 000:344.120 JLINK_WriteReg(R10, 0x00000000)
T10BC 000:344.125 - 0.005ms returns 0
T10BC 000:344.131 JLINK_WriteReg(R11, 0x00000000)
T10BC 000:344.135 - 0.004ms returns 0
T10BC 000:344.141 JLINK_WriteReg(R12, 0x00000000)
T10BC 000:344.146 - 0.004ms returns 0
T10BC 000:344.151 JLINK_WriteReg(R13 (SP), 0x20001000)
T10BC 000:344.156 - 0.005ms returns 0
T10BC 000:344.162 JLINK_WriteReg(R14, 0x20000001)
T10BC 000:344.166 - 0.004ms returns 0
T10BC 000:344.172 JLINK_WriteReg(R15 (PC), 0x200000C0)
T10BC 000:344.177 - 0.005ms returns 0
T10BC 000:344.183 JLINK_WriteReg(XPSR, 0x01000000)
T10BC 000:344.188 - 0.005ms returns 0
T10BC 000:344.193 JLINK_WriteReg(MSP, 0x20001000)
T10BC 000:344.198 - 0.004ms returns 0
T10BC 000:344.203 JLINK_WriteReg(PSP, 0x20001000)
T10BC 000:344.208 - 0.004ms returns 0
T10BC 000:344.214 JLINK_WriteReg(CFBP, 0x00000000)
T10BC 000:344.218 - 0.004ms returns 0
T10BC 000:344.224 JLINK_SetBPEx(Addr = 0x20000000, Type = 0xFFFFFFF2)
T10BC 000:344.230 - 0.005ms returns 0x00000003
T10BC 000:344.236 JLINK_Go()
T10BC 000:344.246   CPU_ReadMem(4 bytes @ 0xE0001000)
T10BC 000:347.407 - 3.171ms 
T10BC 000:347.419 JLINK_IsHalted()
T10BC 000:347.912 - 0.494ms returns FALSE
T10BC 000:347.919 JLINK_HasError()
T10BC 000:411.082 JLINK_IsHalted()
T10BC 000:411.566 - 0.484ms returns FALSE
T10BC 000:411.576 JLINK_HasError()
T10BC 000:471.059 JLINK_IsHalted()
T10BC 000:471.547 - 0.489ms returns FALSE
T10BC 000:471.556 JLINK_HasError()
T10BC 000:528.822 JLINK_IsHalted()
T10BC 000:529.255 - 0.433ms returns FALSE
T10BC 000:529.263 JLINK_HasError()
T10BC 000:584.845 JLINK_IsHalted()
T10BC 000:585.289 - 0.443ms returns FALSE
T10BC 000:585.297 JLINK_HasError()
T10BC 000:632.829 JLINK_IsHalted()
T10BC 000:633.267 - 0.438ms returns FALSE
T10BC 000:633.275 JLINK_HasError()
T10BC 000:642.849 JLINK_IsHalted()
T10BC 000:643.292 - 0.443ms returns FALSE
T10BC 000:643.310 JLINK_HasError()
T10BC 000:650.690 JLINK_IsHalted()
T10BC 000:651.144 - 0.454ms returns FALSE
T10BC 000:651.161 JLINK_HasError()
T10BC 000:658.704 JLINK_IsHalted()
T10BC 000:659.164 - 0.459ms returns FALSE
T10BC 000:659.171 JLINK_HasError()
T10BC 000:663.110 JLINK_IsHalted()
T10BC 000:663.566 - 0.455ms returns FALSE
T10BC 000:663.574 JLINK_HasError()
T10BC 000:673.100 JLINK_IsHalted()
T10BC 000:673.537 - 0.436ms returns FALSE
T10BC 000:673.544 JLINK_HasError()
T10BC 000:679.813 JLINK_IsHalted()
T10BC 000:680.261 - 0.447ms returns FALSE
T10BC 000:680.268 JLINK_HasError()
T10BC 000:684.821 JLINK_IsHalted()
T10BC 000:685.242 - 0.421ms returns FALSE
T10BC 000:685.250 JLINK_HasError()
T10BC 000:687.819 JLINK_IsHalted()
T10BC 000:690.726   CPU_ReadMem(2 bytes @ 0x20000000)
T10BC 000:691.166 - 3.346ms returns TRUE
T10BC 000:691.173 JLINK_ReadReg(R15 (PC))
T10BC 000:691.181 - 0.007ms returns 0x20000000
T10BC 000:691.186 JLINK_ClrBPEx(BPHandle = 0x00000003)
T10BC 000:691.192 - 0.005ms returns 0x00
T10BC 000:691.198 JLINK_ReadReg(R0)
T10BC 000:691.202 - 0.004ms returns 0x00000000
T10BC 000:691.602 JLINK_HasError()
T10BC 000:691.618 JLINK_WriteReg(R0, 0x00000001)
T10BC 000:691.625 - 0.006ms returns 0
T10BC 000:691.630 JLINK_WriteReg(R1, 0x00004000)
T10BC 000:691.636 - 0.005ms returns 0
T10BC 000:691.641 JLINK_WriteReg(R2, 0x000000FF)
T10BC 000:691.646 - 0.004ms returns 0
T10BC 000:691.651 JLINK_WriteReg(R3, 0x00000000)
T10BC 000:691.656 - 0.004ms returns 0
T10BC 000:691.661 JLINK_WriteReg(R4, 0x00000000)
T10BC 000:691.666 - 0.004ms returns 0
T10BC 000:691.671 JLINK_WriteReg(R5, 0x00000000)
T10BC 000:691.676 - 0.004ms returns 0
T10BC 000:691.681 JLINK_WriteReg(R6, 0x00000000)
T10BC 000:691.686 - 0.004ms returns 0
T10BC 000:691.691 JLINK_WriteReg(R7, 0x00000000)
T10BC 000:691.696 - 0.005ms returns 0
T10BC 000:691.701 JLINK_WriteReg(R8, 0x00000000)
T10BC 000:691.706 - 0.004ms returns 0
T10BC 000:691.711 JLINK_WriteReg(R9, 0x20000180)
T10BC 000:691.716 - 0.004ms returns 0
T10BC 000:691.722 JLINK_WriteReg(R10, 0x00000000)
T10BC 000:691.727 - 0.005ms returns 0
T10BC 000:691.732 JLINK_WriteReg(R11, 0x00000000)
T10BC 000:691.737 - 0.004ms returns 0
T10BC 000:691.742 JLINK_WriteReg(R12, 0x00000000)
T10BC 000:691.747 - 0.004ms returns 0
T10BC 000:691.752 JLINK_WriteReg(R13 (SP), 0x20001000)
T10BC 000:691.757 - 0.005ms returns 0
T10BC 000:691.762 JLINK_WriteReg(R14, 0x20000001)
T10BC 000:691.768 - 0.005ms returns 0
T10BC 000:691.773 JLINK_WriteReg(R15 (PC), 0x20000086)
T10BC 000:691.778 - 0.005ms returns 0
T10BC 000:691.784 JLINK_WriteReg(XPSR, 0x01000000)
T10BC 000:691.788 - 0.004ms returns 0
T10BC 000:691.794 JLINK_WriteReg(MSP, 0x20001000)
T10BC 000:691.798 - 0.004ms returns 0
T10BC 000:691.804 JLINK_WriteReg(PSP, 0x20001000)
T10BC 000:691.808 - 0.004ms returns 0
T10BC 000:691.814 JLINK_WriteReg(CFBP, 0x00000000)
T10BC 000:691.818 - 0.004ms returns 0
T10BC 000:691.825 JLINK_SetBPEx(Addr = 0x20000000, Type = 0xFFFFFFF2)
T10BC 000:691.831 - 0.006ms returns 0x00000004
T10BC 000:691.836 JLINK_Go()
T10BC 000:691.849   CPU_ReadMem(4 bytes @ 0xE0001000)
T10BC 000:694.981 - 3.142ms 
T10BC 000:694.995 JLINK_IsHalted()
T10BC 000:697.738   CPU_ReadMem(2 bytes @ 0x20000000)
T10BC 000:698.098 - 3.103ms returns TRUE
T10BC 000:698.110 JLINK_ReadReg(R15 (PC))
T10BC 000:698.116 - 0.006ms returns 0x20000000
T10BC 000:698.121 JLINK_ClrBPEx(BPHandle = 0x00000004)
T10BC 000:698.127 - 0.005ms returns 0x00
T10BC 000:698.132 JLINK_ReadReg(R0)
T10BC 000:698.137 - 0.005ms returns 0x00000000
T10BC 000:756.704 JLINK_WriteMem(0x20000000, 0x184 Bytes, ...)
T10BC 000:756.720   Data:  00 BE 0A E0 0D 78 2D 06 68 40 08 24 40 00 00 D3 ...
T10BC 000:756.743   CPU_WriteMem(388 bytes @ 0x20000000)
T10BC 000:759.457 - 2.752ms returns 0x184
T10BC 000:759.552 JLINK_HasError()
T10BC 000:759.562 JLINK_WriteReg(R0, 0x08000000)
T10BC 000:759.570 - 0.008ms returns 0
T10BC 000:759.576 JLINK_WriteReg(R1, 0x00B71B00)
T10BC 000:759.581 - 0.004ms returns 0
T10BC 000:759.592 JLINK_WriteReg(R2, 0x00000002)
T10BC 000:759.599 - 0.007ms returns 0
T10BC 000:759.605 JLINK_WriteReg(R3, 0x00000000)
T10BC 000:759.610 - 0.004ms returns 0
T10BC 000:759.615 JLINK_WriteReg(R4, 0x00000000)
T10BC 000:759.622 - 0.004ms returns 0
T10BC 000:759.629 JLINK_WriteReg(R5, 0x00000000)
T10BC 000:759.633 - 0.004ms returns 0
T10BC 000:759.639 JLINK_WriteReg(R6, 0x00000000)
T10BC 000:759.643 - 0.004ms returns 0
T10BC 000:759.649 JLINK_WriteReg(R7, 0x00000000)
T10BC 000:759.653 - 0.004ms returns 0
T10BC 000:759.660 JLINK_WriteReg(R8, 0x00000000)
T10BC 000:759.664 - 0.004ms returns 0
T10BC 000:759.669 JLINK_WriteReg(R9, 0x20000180)
T10BC 000:759.674 - 0.004ms returns 0
T10BC 000:759.679 JLINK_WriteReg(R10, 0x00000000)
T10BC 000:759.684 - 0.004ms returns 0
T10BC 000:759.690 JLINK_WriteReg(R11, 0x00000000)
T10BC 000:759.694 - 0.004ms returns 0
T10BC 000:759.700 JLINK_WriteReg(R12, 0x00000000)
T10BC 000:759.704 - 0.004ms returns 0
T10BC 000:759.710 JLINK_WriteReg(R13 (SP), 0x20001000)
T10BC 000:759.715 - 0.005ms returns 0
T10BC 000:759.721 JLINK_WriteReg(R14, 0x20000001)
T10BC 000:759.725 - 0.004ms returns 0
T10BC 000:759.731 JLINK_WriteReg(R15 (PC), 0x20000054)
T10BC 000:759.736 - 0.005ms returns 0
T10BC 000:759.741 JLINK_WriteReg(XPSR, 0x01000000)
T10BC 000:759.746 - 0.004ms returns 0
T10BC 000:759.751 JLINK_WriteReg(MSP, 0x20001000)
T10BC 000:759.756 - 0.004ms returns 0
T10BC 000:759.761 JLINK_WriteReg(PSP, 0x20001000)
T10BC 000:759.766 - 0.004ms returns 0
T10BC 000:759.771 JLINK_WriteReg(CFBP, 0x00000000)
T10BC 000:759.776 - 0.004ms returns 0
T10BC 000:759.781 JLINK_SetBPEx(Addr = 0x20000000, Type = 0xFFFFFFF2)
T10BC 000:759.792   CPU_ReadMem(2 bytes @ 0x20000000)
T10BC 000:760.235 - 0.453ms returns 0x00000005
T10BC 000:760.243 JLINK_Go()
T10BC 000:760.250   CPU_WriteMem(2 bytes @ 0x20000000)
T10BC 000:760.699   CPU_ReadMem(4 bytes @ 0xE0001000)
T10BC 000:763.877 - 3.634ms 
T10BC 000:763.885 JLINK_IsHalted()
T10BC 000:766.614   CPU_ReadMem(2 bytes @ 0x20000000)
T10BC 000:767.138 - 3.252ms returns TRUE
T10BC 000:767.162 JLINK_ReadReg(R15 (PC))
T10BC 000:767.171 - 0.008ms returns 0x20000000
T10BC 000:767.177 JLINK_ClrBPEx(BPHandle = 0x00000005)
T10BC 000:767.183 - 0.005ms returns 0x00
T10BC 000:767.189 JLINK_ReadReg(R0)
T10BC 000:767.194 - 0.005ms returns 0x00000000
T10BC 000:767.674 JLINK_WriteMem(0x20000184, 0x27C Bytes, ...)
T10BC 000:767.685   Data:  F0 4C 00 20 DD 03 00 08 EB 03 00 08 ED 03 00 08 ...
T10BC 000:767.704   CPU_WriteMem(636 bytes @ 0x20000184)
T10BC 000:771.645 - 3.971ms returns 0x27C
T10BC 000:771.657 JLINK_WriteMem(0x20000400, 0x184 Bytes, ...)
T10BC 000:771.662   Data:  BF F8 4A 48 01 21 01 70 49 48 4A 49 0A 78 02 70 ...
T10BC 000:771.679   CPU_WriteMem(388 bytes @ 0x20000400)
T10BC 000:774.349 - 2.691ms returns 0x184
T10BC 000:774.369 JLINK_HasError()
T10BC 000:774.377 JLINK_WriteReg(R0, 0x08000000)
T10BC 000:774.387 - 0.009ms returns 0
T10BC 000:774.392 JLINK_WriteReg(R1, 0x00000400)
T10BC 000:774.398 - 0.005ms returns 0
T10BC 000:774.404 JLINK_WriteReg(R2, 0x20000184)
T10BC 000:774.409 - 0.004ms returns 0
T10BC 000:774.414 JLINK_WriteReg(R3, 0x00000000)
T10BC 000:774.420 - 0.005ms returns 0
T10BC 000:774.426 JLINK_WriteReg(R4, 0x00000000)
T10BC 000:774.431 - 0.004ms returns 0
T10BC 000:774.436 JLINK_WriteReg(R5, 0x00000000)
T10BC 000:774.441 - 0.004ms returns 0
T10BC 000:774.446 JLINK_WriteReg(R6, 0x00000000)
T10BC 000:774.452 - 0.005ms returns 0
T10BC 000:774.459 JLINK_WriteReg(R7, 0x00000000)
T10BC 000:774.466 - 0.007ms returns 0
T10BC 000:774.471 JLINK_WriteReg(R8, 0x00000000)
T10BC 000:774.476 - 0.004ms returns 0
T10BC 000:774.481 JLINK_WriteReg(R9, 0x20000180)
T10BC 000:774.486 - 0.005ms returns 0
T10BC 000:774.493 JLINK_WriteReg(R10, 0x00000000)
T10BC 000:774.499 - 0.005ms returns 0
T10BC 000:774.505 JLINK_WriteReg(R11, 0x00000000)
T10BC 000:774.511 - 0.005ms returns 0
T10BC 000:774.516 JLINK_WriteReg(R12, 0x00000000)
T10BC 000:774.522 - 0.005ms returns 0
T10BC 000:774.529 JLINK_WriteReg(R13 (SP), 0x20001000)
T10BC 000:774.541 - 0.012ms returns 0
T10BC 000:774.549 JLINK_WriteReg(R14, 0x20000001)
T10BC 000:774.553 - 0.004ms returns 0
T10BC 000:774.559 JLINK_WriteReg(R15 (PC), 0x2000010C)
T10BC 000:774.563 - 0.004ms returns 0
T10BC 000:774.569 JLINK_WriteReg(XPSR, 0x01000000)
T10BC 000:774.574 - 0.005ms returns 0
T10BC 000:774.579 JLINK_WriteReg(MSP, 0x20001000)
T10BC 000:774.584 - 0.004ms returns 0
T10BC 000:774.589 JLINK_WriteReg(PSP, 0x20001000)
T10BC 000:774.593 - 0.004ms returns 0
T10BC 000:774.600 JLINK_WriteReg(CFBP, 0x00000000)
T10BC 000:774.607 - 0.007ms returns 0
T10BC 000:774.619 JLINK_SetBPEx(Addr = 0x20000000, Type = 0xFFFFFFF2)
T10BC 000:774.625 - 0.006ms returns 0x00000006
T10BC 000:774.631 JLINK_Go()
T10BC 000:774.642   CPU_ReadMem(4 bytes @ 0xE0001000)
T10BC 000:778.087 - 3.454ms 
T10BC 000:778.127 JLINK_IsHalted()
T10BC 000:778.497 - 0.369ms returns FALSE
T10BC 000:778.508 JLINK_HasError()
T10BC 000:784.695 JLINK_IsHalted()
T10BC 000:787.571   CPU_ReadMem(2 bytes @ 0x20000000)
T10BC 000:787.929 - 3.235ms returns TRUE
T10BC 000:787.937 JLINK_ReadReg(R15 (PC))
T10BC 000:787.944 - 0.006ms returns 0x20000000
T10BC 000:787.949 JLINK_ClrBPEx(BPHandle = 0x00000006)
T10BC 000:787.955 - 0.005ms returns 0x00
T10BC 000:787.960 JLINK_ReadReg(R0)
T10BC 000:787.965 - 0.004ms returns 0x00000000
T10BC 000:788.440 JLINK_WriteMem(0x20000184, 0x27C Bytes, ...)
T10BC 000:788.456   Data:  04 48 05 49 05 4A 06 4B 70 47 00 00 0F 03 00 08 ...
T10BC 000:788.471   CPU_WriteMem(636 bytes @ 0x20000184)
T10BC 000:792.233 - 3.791ms returns 0x27C
T10BC 000:792.269 JLINK_WriteMem(0x20000400, 0x184 Bytes, ...)
T10BC 000:792.274   Data:  00 00 02 40 1D 48 1E 48 1E 48 1F 48 1F 48 20 48 ...
T10BC 000:792.290   CPU_WriteMem(388 bytes @ 0x20000400)
T10BC 000:794.983 - 2.714ms returns 0x184
T10BC 000:795.004 JLINK_HasError()
T10BC 000:795.010 JLINK_WriteReg(R0, 0x08000400)
T10BC 000:795.018 - 0.007ms returns 0
T10BC 000:795.023 JLINK_WriteReg(R1, 0x00000400)
T10BC 000:795.028 - 0.004ms returns 0
T10BC 000:795.034 JLINK_WriteReg(R2, 0x20000184)
T10BC 000:795.038 - 0.004ms returns 0
T10BC 000:795.043 JLINK_WriteReg(R3, 0x00000000)
T10BC 000:795.048 - 0.004ms returns 0
T10BC 000:795.053 JLINK_WriteReg(R4, 0x00000000)
T10BC 000:795.059 - 0.006ms returns 0
T10BC 000:795.065 JLINK_WriteReg(R5, 0x00000000)
T10BC 000:795.070 - 0.004ms returns 0
T10BC 000:795.075 JLINK_WriteReg(R6, 0x00000000)
T10BC 000:795.080 - 0.004ms returns 0
T10BC 000:795.086 JLINK_WriteReg(R7, 0x00000000)
T10BC 000:795.090 - 0.004ms returns 0
T10BC 000:795.096 JLINK_WriteReg(R8, 0x00000000)
T10BC 000:795.100 - 0.004ms returns 0
T10BC 000:795.106 JLINK_WriteReg(R9, 0x20000180)
T10BC 000:795.111 - 0.004ms returns 0
T10BC 000:795.116 JLINK_WriteReg(R10, 0x00000000)
T10BC 000:795.121 - 0.004ms returns 0
T10BC 000:795.126 JLINK_WriteReg(R11, 0x00000000)
T10BC 000:795.131 - 0.004ms returns 0
T10BC 000:795.136 JLINK_WriteReg(R12, 0x00000000)
T10BC 000:795.141 - 0.004ms returns 0
T10BC 000:795.147 JLINK_WriteReg(R13 (SP), 0x20001000)
T10BC 000:795.152 - 0.005ms returns 0
T10BC 000:795.158 JLINK_WriteReg(R14, 0x20000001)
T10BC 000:795.163 - 0.004ms returns 0
T10BC 000:795.168 JLINK_WriteReg(R15 (PC), 0x2000010C)
T10BC 000:795.173 - 0.004ms returns 0
T10BC 000:795.178 JLINK_WriteReg(XPSR, 0x01000000)
T10BC 000:795.183 - 0.004ms returns 0
T10BC 000:795.188 JLINK_WriteReg(MSP, 0x20001000)
T10BC 000:795.193 - 0.004ms returns 0
T10BC 000:795.198 JLINK_WriteReg(PSP, 0x20001000)
T10BC 000:795.202 - 0.004ms returns 0
T10BC 000:795.208 JLINK_WriteReg(CFBP, 0x00000000)
T10BC 000:795.213 - 0.005ms returns 0
T10BC 000:795.219 JLINK_SetBPEx(Addr = 0x20000000, Type = 0xFFFFFFF2)
T10BC 000:795.225 - 0.006ms returns 0x00000007
T10BC 000:795.230 JLINK_Go()
T10BC 000:795.242   CPU_ReadMem(4 bytes @ 0xE0001000)
T10BC 000:798.465 - 3.233ms 
T10BC 000:798.478 JLINK_IsHalted()
T10BC 000:798.899 - 0.419ms returns FALSE
T10BC 000:798.907 JLINK_HasError()
T10BC 000:803.274 JLINK_IsHalted()
T10BC 000:806.191   CPU_ReadMem(2 bytes @ 0x20000000)
T10BC 000:806.673 - 3.399ms returns TRUE
T10BC 000:806.682 JLINK_ReadReg(R15 (PC))
T10BC 000:806.688 - 0.006ms returns 0x20000000
T10BC 000:806.694 JLINK_ClrBPEx(BPHandle = 0x00000007)
T10BC 000:806.700 - 0.005ms returns 0x00
T10BC 000:806.705 JLINK_ReadReg(R0)
T10BC 000:806.710 - 0.005ms returns 0x00000000
T10BC 000:807.123 JLINK_WriteMem(0x20000184, 0x27C Bytes, ...)
T10BC 000:807.135   Data:  12 20 20 70 F3 E7 28 78 01 28 08 D0 02 28 07 D0 ...
T10BC 000:807.147   CPU_WriteMem(636 bytes @ 0x20000184)
T10BC 000:811.023 - 3.899ms returns 0x27C
T10BC 000:811.043 JLINK_WriteMem(0x20000400, 0x184 Bytes, ...)
T10BC 000:811.049   Data:  00 20 70 BD 00 BF 60 20 FF F7 D6 FB 06 46 00 BF ...
T10BC 000:811.063   CPU_WriteMem(388 bytes @ 0x20000400)
T10BC 000:813.696 - 2.650ms returns 0x184
T10BC 000:813.706 JLINK_HasError()
T10BC 000:813.712 JLINK_WriteReg(R0, 0x08000800)
T10BC 000:813.719 - 0.006ms returns 0
T10BC 000:813.724 JLINK_WriteReg(R1, 0x00000400)
T10BC 000:813.729 - 0.004ms returns 0
T10BC 000:813.734 JLINK_WriteReg(R2, 0x20000184)
T10BC 000:813.739 - 0.004ms returns 0
T10BC 000:813.744 JLINK_WriteReg(R3, 0x00000000)
T10BC 000:813.749 - 0.004ms returns 0
T10BC 000:813.754 JLINK_WriteReg(R4, 0x00000000)
T10BC 000:813.758 - 0.004ms returns 0
T10BC 000:813.764 JLINK_WriteReg(R5, 0x00000000)
T10BC 000:813.769 - 0.005ms returns 0
T10BC 000:813.774 JLINK_WriteReg(R6, 0x00000000)
T10BC 000:813.779 - 0.004ms returns 0
T10BC 000:813.784 JLINK_WriteReg(R7, 0x00000000)
T10BC 000:813.789 - 0.004ms returns 0
T10BC 000:813.794 JLINK_WriteReg(R8, 0x00000000)
T10BC 000:813.799 - 0.004ms returns 0
T10BC 000:813.804 JLINK_WriteReg(R9, 0x20000180)
T10BC 000:813.808 - 0.004ms returns 0
T10BC 000:813.814 JLINK_WriteReg(R10, 0x00000000)
T10BC 000:813.819 - 0.005ms returns 0
T10BC 000:813.824 JLINK_WriteReg(R11, 0x00000000)
T10BC 000:813.828 - 0.004ms returns 0
T10BC 000:813.834 JLINK_WriteReg(R12, 0x00000000)
T10BC 000:813.838 - 0.004ms returns 0
T10BC 000:813.843 JLINK_WriteReg(R13 (SP), 0x20001000)
T10BC 000:813.849 - 0.005ms returns 0
T10BC 000:813.854 JLINK_WriteReg(R14, 0x20000001)
T10BC 000:813.859 - 0.004ms returns 0
T10BC 000:813.864 JLINK_WriteReg(R15 (PC), 0x2000010C)
T10BC 000:813.869 - 0.004ms returns 0
T10BC 000:813.874 JLINK_WriteReg(XPSR, 0x01000000)
T10BC 000:813.879 - 0.004ms returns 0
T10BC 000:813.884 JLINK_WriteReg(MSP, 0x20001000)
T10BC 000:813.888 - 0.004ms returns 0
T10BC 000:813.894 JLINK_WriteReg(PSP, 0x20001000)
T10BC 000:813.898 - 0.004ms returns 0
T10BC 000:813.904 JLINK_WriteReg(CFBP, 0x00000000)
T10BC 000:813.908 - 0.004ms returns 0
T10BC 000:813.914 JLINK_SetBPEx(Addr = 0x20000000, Type = 0xFFFFFFF2)
T10BC 000:813.920 - 0.006ms returns 0x00000008
T10BC 000:813.926 JLINK_Go()
T10BC 000:813.937   CPU_ReadMem(4 bytes @ 0xE0001000)
T10BC 000:817.082 - 3.156ms 
T10BC 000:817.091 JLINK_IsHalted()
T10BC 000:817.434 - 0.343ms returns FALSE
T10BC 000:817.441 JLINK_HasError()
T10BC 000:820.125 JLINK_IsHalted()
T10BC 000:820.614 - 0.489ms returns FALSE
T10BC 000:820.624 JLINK_HasError()
T10BC 000:823.135 JLINK_IsHalted()
T10BC 000:826.108   CPU_ReadMem(2 bytes @ 0x20000000)
T10BC 000:826.501 - 3.366ms returns TRUE
T10BC 000:826.509 JLINK_ReadReg(R15 (PC))
T10BC 000:826.515 - 0.006ms returns 0x20000000
T10BC 000:826.520 JLINK_ClrBPEx(BPHandle = 0x00000008)
T10BC 000:826.525 - 0.005ms returns 0x00
T10BC 000:826.531 JLINK_ReadReg(R0)
T10BC 000:826.536 - 0.004ms returns 0x00000000
T10BC 000:826.957 JLINK_WriteMem(0x20000184, 0x27C Bytes, ...)
T10BC 000:826.968   Data:  08 49 09 68 48 62 00 BF 38 46 FF F7 21 FB 00 BF ...
T10BC 000:826.981   CPU_WriteMem(636 bytes @ 0x20000184)
T10BC 000:830.799 - 3.842ms returns 0x27C
T10BC 000:830.811 JLINK_WriteMem(0x20000400, 0x184 Bytes, ...)
T10BC 000:830.816   Data:  5E D1 01 20 33 49 41 F8 24 00 00 BF 03 98 FF F7 ...
T10BC 000:830.825   CPU_WriteMem(388 bytes @ 0x20000400)
T10BC 000:833.471 - 2.660ms returns 0x184
T10BC 000:833.485 JLINK_HasError()
T10BC 000:833.492 JLINK_WriteReg(R0, 0x08000C00)
T10BC 000:833.507 - 0.015ms returns 0
T10BC 000:833.548 JLINK_WriteReg(R1, 0x00000400)
T10BC 000:833.557 - 0.008ms returns 0
T10BC 000:833.562 JLINK_WriteReg(R2, 0x20000184)
T10BC 000:833.566 - 0.004ms returns 0
T10BC 000:833.572 JLINK_WriteReg(R3, 0x00000000)
T10BC 000:833.576 - 0.004ms returns 0
T10BC 000:833.581 JLINK_WriteReg(R4, 0x00000000)
T10BC 000:833.586 - 0.004ms returns 0
T10BC 000:833.591 JLINK_WriteReg(R5, 0x00000000)
T10BC 000:833.596 - 0.004ms returns 0
T10BC 000:833.601 JLINK_WriteReg(R6, 0x00000000)
T10BC 000:833.606 - 0.004ms returns 0
T10BC 000:833.611 JLINK_WriteReg(R7, 0x00000000)
T10BC 000:833.616 - 0.004ms returns 0
T10BC 000:833.621 JLINK_WriteReg(R8, 0x00000000)
T10BC 000:833.626 - 0.004ms returns 0
T10BC 000:833.631 JLINK_WriteReg(R9, 0x20000180)
T10BC 000:833.635 - 0.004ms returns 0
T10BC 000:833.640 JLINK_WriteReg(R10, 0x00000000)
T10BC 000:833.646 - 0.005ms returns 0
T10BC 000:833.652 JLINK_WriteReg(R11, 0x00000000)
T10BC 000:833.657 - 0.004ms returns 0
T10BC 000:833.662 JLINK_WriteReg(R12, 0x00000000)
T10BC 000:833.667 - 0.004ms returns 0
T10BC 000:833.672 JLINK_WriteReg(R13 (SP), 0x20001000)
T10BC 000:833.677 - 0.005ms returns 0
T10BC 000:833.683 JLINK_WriteReg(R14, 0x20000001)
T10BC 000:833.688 - 0.004ms returns 0
T10BC 000:833.693 JLINK_WriteReg(R15 (PC), 0x2000010C)
T10BC 000:833.698 - 0.004ms returns 0
T10BC 000:833.703 JLINK_WriteReg(XPSR, 0x01000000)
T10BC 000:833.708 - 0.004ms returns 0
T10BC 000:833.714 JLINK_WriteReg(MSP, 0x20001000)
T10BC 000:833.718 - 0.004ms returns 0
T10BC 000:833.726 JLINK_WriteReg(PSP, 0x20001000)
T10BC 000:833.750 - 0.024ms returns 0
T10BC 000:833.758 JLINK_WriteReg(CFBP, 0x00000000)
T10BC 000:833.764 - 0.007ms returns 0
T10BC 000:833.773 JLINK_SetBPEx(Addr = 0x20000000, Type = 0xFFFFFFF2)
T10BC 000:833.779 - 0.006ms returns 0x00000009
T10BC 000:833.786 JLINK_Go()
T10BC 000:833.802   CPU_ReadMem(4 bytes @ 0xE0001000)
T10BC 000:837.267 - 3.480ms 
T10BC 000:837.292 JLINK_IsHalted()
T10BC 000:837.817 - 0.524ms returns FALSE
T10BC 000:837.837 JLINK_HasError()
T10BC 000:842.728 JLINK_IsHalted()
T10BC 000:845.733   CPU_ReadMem(2 bytes @ 0x20000000)
T10BC 000:846.131 - 3.403ms returns TRUE
T10BC 000:846.139 JLINK_ReadReg(R15 (PC))
T10BC 000:846.145 - 0.006ms returns 0x20000000
T10BC 000:846.151 JLINK_ClrBPEx(BPHandle = 0x00000009)
T10BC 000:846.156 - 0.005ms returns 0x00
T10BC 000:846.162 JLINK_ReadReg(R0)
T10BC 000:846.167 - 0.004ms returns 0x00000000
T10BC 000:846.592 JLINK_WriteMem(0x20000184, 0x27C Bytes, ...)
T10BC 000:846.603   Data:  18 B1 20 46 E1 69 00 F0 9D FC 20 6A 18 B1 20 46 ...
T10BC 000:846.617   CPU_WriteMem(636 bytes @ 0x20000184)
T10BC 000:850.460 - 3.867ms returns 0x27C
T10BC 000:850.475 JLINK_WriteMem(0x20000400, 0x184 Bytes, ...)
T10BC 000:850.481   Data:  10 1D 20 F0 07 00 4F F0 80 76 05 1F 28 46 2E 60 ...
T10BC 000:850.495   CPU_WriteMem(388 bytes @ 0x20000400)
T10BC 000:853.131 - 2.655ms returns 0x184
T10BC 000:853.151 JLINK_HasError()
T10BC 000:853.158 JLINK_WriteReg(R0, 0x08001000)
T10BC 000:853.166 - 0.008ms returns 0
T10BC 000:853.172 JLINK_WriteReg(R1, 0x00000400)
T10BC 000:853.176 - 0.004ms returns 0
T10BC 000:853.182 JLINK_WriteReg(R2, 0x20000184)
T10BC 000:853.187 - 0.005ms returns 0
T10BC 000:853.192 JLINK_WriteReg(R3, 0x00000000)
T10BC 000:853.197 - 0.004ms returns 0
T10BC 000:853.202 JLINK_WriteReg(R4, 0x00000000)
T10BC 000:853.207 - 0.004ms returns 0
T10BC 000:853.213 JLINK_WriteReg(R5, 0x00000000)
T10BC 000:853.217 - 0.004ms returns 0
T10BC 000:853.223 JLINK_WriteReg(R6, 0x00000000)
T10BC 000:853.228 - 0.006ms returns 0
T10BC 000:853.234 JLINK_WriteReg(R7, 0x00000000)
T10BC 000:853.238 - 0.004ms returns 0
T10BC 000:853.243 JLINK_WriteReg(R8, 0x00000000)
T10BC 000:853.248 - 0.004ms returns 0
T10BC 000:853.253 JLINK_WriteReg(R9, 0x20000180)
T10BC 000:853.258 - 0.004ms returns 0
T10BC 000:853.263 JLINK_WriteReg(R10, 0x00000000)
T10BC 000:853.268 - 0.004ms returns 0
T10BC 000:853.273 JLINK_WriteReg(R11, 0x00000000)
T10BC 000:853.283 - 0.009ms returns 0
T10BC 000:853.291 JLINK_WriteReg(R12, 0x00000000)
T10BC 000:853.296 - 0.004ms returns 0
T10BC 000:853.301 JLINK_WriteReg(R13 (SP), 0x20001000)
T10BC 000:853.306 - 0.005ms returns 0
T10BC 000:853.311 JLINK_WriteReg(R14, 0x20000001)
T10BC 000:853.316 - 0.004ms returns 0
T10BC 000:853.321 JLINK_WriteReg(R15 (PC), 0x2000010C)
T10BC 000:853.326 - 0.004ms returns 0
T10BC 000:853.331 JLINK_WriteReg(XPSR, 0x01000000)
T10BC 000:853.336 - 0.004ms returns 0
T10BC 000:853.341 JLINK_WriteReg(MSP, 0x20001000)
T10BC 000:853.346 - 0.004ms returns 0
T10BC 000:853.351 JLINK_WriteReg(PSP, 0x20001000)
T10BC 000:853.355 - 0.004ms returns 0
T10BC 000:853.361 JLINK_WriteReg(CFBP, 0x00000000)
T10BC 000:853.365 - 0.004ms returns 0
T10BC 000:853.371 JLINK_SetBPEx(Addr = 0x20000000, Type = 0xFFFFFFF2)
T10BC 000:853.377 - 0.006ms returns 0x0000000A
T10BC 000:853.383 JLINK_Go()
T10BC 000:853.395   CPU_ReadMem(4 bytes @ 0xE0001000)
T10BC 000:856.634 - 3.251ms 
T10BC 000:856.644 JLINK_IsHalted()
T10BC 000:857.050 - 0.406ms returns FALSE
T10BC 000:857.057 JLINK_HasError()
T10BC 000:860.093 JLINK_IsHalted()
T10BC 000:860.535 - 0.440ms returns FALSE
T10BC 000:860.556 JLINK_HasError()
T10BC 000:862.081 JLINK_IsHalted()
T10BC 000:864.877   CPU_ReadMem(2 bytes @ 0x20000000)
T10BC 000:865.300 - 3.219ms returns TRUE
T10BC 000:865.307 JLINK_ReadReg(R15 (PC))
T10BC 000:865.313 - 0.006ms returns 0x20000000
T10BC 000:865.319 JLINK_ClrBPEx(BPHandle = 0x0000000A)
T10BC 000:865.325 - 0.005ms returns 0x00
T10BC 000:865.330 JLINK_ReadReg(R0)
T10BC 000:865.335 - 0.004ms returns 0x00000000
T10BC 000:865.749 JLINK_WriteMem(0x20000184, 0x27C Bytes, ...)
T10BC 000:865.759   Data:  0E F9 02 48 00 68 01 F0 2D FE 10 BD 34 00 00 20 ...
T10BC 000:865.781   CPU_WriteMem(636 bytes @ 0x20000184)
T10BC 000:869.741 - 3.991ms returns 0x27C
T10BC 000:869.763 JLINK_WriteMem(0x20000400, 0x184 Bytes, ...)
T10BC 000:869.769   Data:  13 49 08 80 0D 48 13 49 08 60 01 20 FF F7 F2 F9 ...
T10BC 000:869.792   CPU_WriteMem(388 bytes @ 0x20000400)
T10BC 000:872.439 - 2.674ms returns 0x184
T10BC 000:872.450 JLINK_HasError()
T10BC 000:872.456 JLINK_WriteReg(R0, 0x08001400)
T10BC 000:872.462 - 0.006ms returns 0
T10BC 000:872.468 JLINK_WriteReg(R1, 0x00000400)
T10BC 000:872.472 - 0.004ms returns 0
T10BC 000:872.478 JLINK_WriteReg(R2, 0x20000184)
T10BC 000:872.482 - 0.004ms returns 0
T10BC 000:872.488 JLINK_WriteReg(R3, 0x00000000)
T10BC 000:872.492 - 0.004ms returns 0
T10BC 000:872.498 JLINK_WriteReg(R4, 0x00000000)
T10BC 000:872.503 - 0.005ms returns 0
T10BC 000:872.508 JLINK_WriteReg(R5, 0x00000000)
T10BC 000:872.513 - 0.004ms returns 0
T10BC 000:872.518 JLINK_WriteReg(R6, 0x00000000)
T10BC 000:872.523 - 0.004ms returns 0
T10BC 000:872.528 JLINK_WriteReg(R7, 0x00000000)
T10BC 000:872.533 - 0.004ms returns 0
T10BC 000:872.538 JLINK_WriteReg(R8, 0x00000000)
T10BC 000:872.542 - 0.004ms returns 0
T10BC 000:872.548 JLINK_WriteReg(R9, 0x20000180)
T10BC 000:872.552 - 0.004ms returns 0
T10BC 000:872.557 JLINK_WriteReg(R10, 0x00000000)
T10BC 000:872.562 - 0.004ms returns 0
T10BC 000:872.567 JLINK_WriteReg(R11, 0x00000000)
T10BC 000:872.572 - 0.004ms returns 0
T10BC 000:872.577 JLINK_WriteReg(R12, 0x00000000)
T10BC 000:872.582 - 0.004ms returns 0
T10BC 000:872.588 JLINK_WriteReg(R13 (SP), 0x20001000)
T10BC 000:872.593 - 0.006ms returns 0
T10BC 000:872.598 JLINK_WriteReg(R14, 0x20000001)
T10BC 000:872.603 - 0.004ms returns 0
T10BC 000:872.608 JLINK_WriteReg(R15 (PC), 0x2000010C)
T10BC 000:872.613 - 0.004ms returns 0
T10BC 000:872.618 JLINK_WriteReg(XPSR, 0x01000000)
T10BC 000:872.623 - 0.004ms returns 0
T10BC 000:872.628 JLINK_WriteReg(MSP, 0x20001000)
T10BC 000:872.633 - 0.004ms returns 0
T10BC 000:872.638 JLINK_WriteReg(PSP, 0x20001000)
T10BC 000:872.643 - 0.004ms returns 0
T10BC 000:872.648 JLINK_WriteReg(CFBP, 0x00000000)
T10BC 000:872.653 - 0.004ms returns 0
T10BC 000:872.658 JLINK_SetBPEx(Addr = 0x20000000, Type = 0xFFFFFFF2)
T10BC 000:872.664 - 0.005ms returns 0x0000000B
T10BC 000:872.676 JLINK_Go()
T10BC 000:872.689   CPU_ReadMem(4 bytes @ 0xE0001000)
T10BC 000:875.799 - 3.123ms 
T10BC 000:875.807 JLINK_IsHalted()
T10BC 000:876.290 - 0.483ms returns FALSE
T10BC 000:876.297 JLINK_HasError()
T10BC 000:877.885 JLINK_IsHalted()
T10BC 000:878.250 - 0.366ms returns FALSE
T10BC 000:878.257 JLINK_HasError()
T10BC 000:879.884 JLINK_IsHalted()
T10BC 000:882.687   CPU_ReadMem(2 bytes @ 0x20000000)
T10BC 000:883.179 - 3.295ms returns TRUE
T10BC 000:883.196 JLINK_ReadReg(R15 (PC))
T10BC 000:883.203 - 0.007ms returns 0x20000000
T10BC 000:883.209 JLINK_ClrBPEx(BPHandle = 0x0000000B)
T10BC 000:883.214 - 0.005ms returns 0x00
T10BC 000:883.220 JLINK_ReadReg(R0)
T10BC 000:883.225 - 0.004ms returns 0x00000000
T10BC 000:883.721 JLINK_WriteMem(0x20000184, 0x27C Bytes, ...)
T10BC 000:883.730   Data:  E6 68 14 49 60 69 09 68 88 42 1B D1 20 46 01 F0 ...
T10BC 000:883.741   CPU_WriteMem(636 bytes @ 0x20000184)
T10BC 000:887.689 - 3.969ms returns 0x27C
T10BC 000:887.712 JLINK_WriteMem(0x20000400, 0x184 Bytes, ...)
T10BC 000:887.717   Data:  04 2D EF D3 06 48 00 EB 05 14 00 20 20 70 60 60 ...
T10BC 000:887.729   CPU_WriteMem(388 bytes @ 0x20000400)
T10BC 000:890.403 - 2.691ms returns 0x184
T10BC 000:890.424 JLINK_HasError()
T10BC 000:890.431 JLINK_WriteReg(R0, 0x08001800)
T10BC 000:890.439 - 0.008ms returns 0
T10BC 000:890.445 JLINK_WriteReg(R1, 0x00000400)
T10BC 000:890.449 - 0.004ms returns 0
T10BC 000:890.455 JLINK_WriteReg(R2, 0x20000184)
T10BC 000:890.459 - 0.004ms returns 0
T10BC 000:890.464 JLINK_WriteReg(R3, 0x00000000)
T10BC 000:890.469 - 0.004ms returns 0
T10BC 000:890.474 JLINK_WriteReg(R4, 0x00000000)
T10BC 000:890.479 - 0.004ms returns 0
T10BC 000:890.484 JLINK_WriteReg(R5, 0x00000000)
T10BC 000:890.488 - 0.004ms returns 0
T10BC 000:890.493 JLINK_WriteReg(R6, 0x00000000)
T10BC 000:890.499 - 0.005ms returns 0
T10BC 000:890.504 JLINK_WriteReg(R7, 0x00000000)
T10BC 000:890.508 - 0.004ms returns 0
T10BC 000:890.514 JLINK_WriteReg(R8, 0x00000000)
T10BC 000:890.519 - 0.004ms returns 0
T10BC 000:890.527 JLINK_WriteReg(R9, 0x20000180)
T10BC 000:890.531 - 0.004ms returns 0
T10BC 000:890.636 JLINK_WriteReg(R10, 0x00000000)
T10BC 000:890.652 - 0.016ms returns 0
T10BC 000:890.658 JLINK_WriteReg(R11, 0x00000000)
T10BC 000:890.662 - 0.004ms returns 0
T10BC 000:890.667 JLINK_WriteReg(R12, 0x00000000)
T10BC 000:890.672 - 0.004ms returns 0
T10BC 000:890.677 JLINK_WriteReg(R13 (SP), 0x20001000)
T10BC 000:890.682 - 0.005ms returns 0
T10BC 000:890.687 JLINK_WriteReg(R14, 0x20000001)
T10BC 000:890.691 - 0.004ms returns 0
T10BC 000:890.696 JLINK_WriteReg(R15 (PC), 0x2000010C)
T10BC 000:890.701 - 0.004ms returns 0
T10BC 000:890.706 JLINK_WriteReg(XPSR, 0x01000000)
T10BC 000:890.711 - 0.004ms returns 0
T10BC 000:890.716 JLINK_WriteReg(MSP, 0x20001000)
T10BC 000:890.720 - 0.005ms returns 0
T10BC 000:890.725 JLINK_WriteReg(PSP, 0x20001000)
T10BC 000:890.730 - 0.004ms returns 0
T10BC 000:890.735 JLINK_WriteReg(CFBP, 0x00000000)
T10BC 000:890.740 - 0.004ms returns 0
T10BC 000:890.745 JLINK_SetBPEx(Addr = 0x20000000, Type = 0xFFFFFFF2)
T10BC 000:890.751 - 0.005ms returns 0x0000000C
T10BC 000:890.756 JLINK_Go()
T10BC 000:890.766   CPU_ReadMem(4 bytes @ 0xE0001000)
T10BC 000:894.253 - 3.495ms 
T10BC 000:894.276 JLINK_IsHalted()
T10BC 000:894.628 - 0.350ms returns FALSE
T10BC 000:894.642 JLINK_HasError()
T10BC 000:896.240 JLINK_IsHalted()
T10BC 000:896.792 - 0.551ms returns FALSE
T10BC 000:896.808 JLINK_HasError()
T10BC 000:898.247 JLINK_IsHalted()
T10BC 000:901.144   CPU_ReadMem(2 bytes @ 0x20000000)
T10BC 000:901.736 - 3.488ms returns TRUE
T10BC 000:901.753 JLINK_ReadReg(R15 (PC))
T10BC 000:901.761 - 0.008ms returns 0x20000000
T10BC 000:901.766 JLINK_ClrBPEx(BPHandle = 0x0000000C)
T10BC 000:901.771 - 0.005ms returns 0x00
T10BC 000:901.777 JLINK_ReadReg(R0)
T10BC 000:901.782 - 0.004ms returns 0x00000000
T10BC 000:902.261 JLINK_WriteMem(0x20000184, 0x27C Bytes, ...)
T10BC 000:902.271   Data:  01 EB 80 06 5E 61 0E A0 58 65 60 1C C4 B2 15 2C ...
T10BC 000:902.293   CPU_WriteMem(636 bytes @ 0x20000184)
T10BC 000:906.198 - 3.937ms returns 0x27C
T10BC 000:906.215 JLINK_WriteMem(0x20000400, 0x184 Bytes, ...)
T10BC 000:906.221   Data:  49 49 60 69 08 60 00 BF 00 98 FE F7 E3 F9 00 BF ...
T10BC 000:906.233   CPU_WriteMem(388 bytes @ 0x20000400)
T10BC 000:908.877 - 2.661ms returns 0x184
T10BC 000:908.899 JLINK_HasError()
T10BC 000:908.906 JLINK_WriteReg(R0, 0x08001C00)
T10BC 000:908.913 - 0.007ms returns 0
T10BC 000:908.922 JLINK_WriteReg(R1, 0x00000400)
T10BC 000:908.929 - 0.006ms returns 0
T10BC 000:908.934 JLINK_WriteReg(R2, 0x20000184)
T10BC 000:908.956 - 0.022ms returns 0
T10BC 000:908.961 JLINK_WriteReg(R3, 0x00000000)
T10BC 000:908.966 - 0.005ms returns 0
T10BC 000:908.980 JLINK_WriteReg(R4, 0x00000000)
T10BC 000:908.985 - 0.004ms returns 0
T10BC 000:908.990 JLINK_WriteReg(R5, 0x00000000)
T10BC 000:908.995 - 0.004ms returns 0
T10BC 000:909.000 JLINK_WriteReg(R6, 0x00000000)
T10BC 000:909.005 - 0.004ms returns 0
T10BC 000:909.010 JLINK_WriteReg(R7, 0x00000000)
T10BC 000:909.015 - 0.004ms returns 0
T10BC 000:909.021 JLINK_WriteReg(R8, 0x00000000)
T10BC 000:909.027 - 0.004ms returns 0
T10BC 000:909.032 JLINK_WriteReg(R9, 0x20000180)
T10BC 000:909.036 - 0.004ms returns 0
T10BC 000:909.043 JLINK_WriteReg(R10, 0x00000000)
T10BC 000:909.048 - 0.004ms returns 0
T10BC 000:909.053 JLINK_WriteReg(R11, 0x00000000)
T10BC 000:909.058 - 0.004ms returns 0
T10BC 000:909.063 JLINK_WriteReg(R12, 0x00000000)
T10BC 000:909.068 - 0.004ms returns 0
T10BC 000:909.075 JLINK_WriteReg(R13 (SP), 0x20001000)
T10BC 000:909.093 - 0.018ms returns 0
T10BC 000:909.098 JLINK_WriteReg(R14, 0x20000001)
T10BC 000:909.103 - 0.005ms returns 0
T10BC 000:909.109 JLINK_WriteReg(R15 (PC), 0x2000010C)
T10BC 000:909.120 - 0.011ms returns 0
T10BC 000:909.126 JLINK_WriteReg(XPSR, 0x01000000)
T10BC 000:909.131 - 0.004ms returns 0
